
T0924 000:055 SEGGER J-Link V6.10i Log File (0001ms, 0023ms total)
T0924 000:055 DLL Compiled: Oct 25 2016 19:31:51 (0001ms, 0023ms total)
T0924 000:055 Logging started @ 2017-10-27 17:50 (0001ms, 0023ms total)
T0924 000:056 JLINK_SetWarnOutHandler(...) (0000ms, 0023ms total)
T0924 000:056 JLINK_OpenEx(...)
Firmware: J-Link ARM V8 compiled Nov 28 2014 13:44:46
Hardware: V8.00
S/N: 799713843
Feature(s): RDI,FlashDL,FlashBP,JFlash,GDBFULLWEBSRV Webserver running on local port 19080 (0012ms, 0035ms total)
T0924 000:056   returns O.K. (0012ms, 0035ms total)
T0924 000:068 JLINK_SetErrorOutHandler(...) (0000ms, 0035ms total)
T0924 000:068 JLINK_ExecCommand("ProjectFile = "E:\smartcarÖÇÄÜ³µ\F407sc\F4 7725\Temp-Version\F407_OV7725\USER\JLinkSettings.ini"", ...).   returns 0x00 (0207ms, 0242ms total)
T0924 000:278 JLINK_ExecCommand("Device = STM32F407ZG", ...). Device "STM32F407ZG" selected.  returns 0x00 (0005ms, 0248ms total)
T0924 000:284 JLINK_ExecCommand("DisableConnectionTimeout", ...).   returns 0x01 (0000ms, 0248ms total)
T0924 000:284 JLINK_GetHardwareVersion()  returns 0x13880 (0000ms, 0248ms total)
T0924 000:284 JLINK_GetDLLVersion()  returns 61009 (0000ms, 0248ms total)
T0924 000:284 JLINK_GetFirmwareString(...) (0000ms, 0248ms total)
T0924 000:296 JLINK_GetDLLVersion()  returns 61009 (0000ms, 0248ms total)
T0924 000:296 JLINK_GetCompileDateTime() (0000ms, 0248ms total)
T0924 000:299 JLINK_GetFirmwareString(...) (0000ms, 0248ms total)
T0924 000:302 JLINK_GetHardwareVersion()  returns 0x13880 (0000ms, 0248ms total)
T0924 000:313 JLINK_TIF_Select(JLINKARM_TIF_JTAG)  returns 0x00 (0002ms, 0250ms total)
T0924 000:315 JLINK_SetSpeed(5000) (0000ms, 0250ms total)
T0924 000:315 JLINK_GetIdData(...) >0x2F8 JTAG>TotalIRLen = 9, IRPrint = 0x0011 >0x30 JTAG> >0x410 JTAG> >0x40 JTAG> >0x40 JTAG> >0x40 JTAG> >0x30 JTAG> >0x40 JTAG> >0x40 JTAG> >0x40 JTAG> >0x40 JTAG> >0x40 JTAG> >0x40 JTAG> >0x40 JTAG> >0x40 JTAG> >0x40 JTAG> >0x40 JTAG> >0x40 JTAG> >0x40 JTAG> >0x40 JTAG> >0x40 JTAG> >0x40 JTAG> >0x40 JTAG> >0x40 JTAG> >0x40 JTAG> >0x40 JTAG> >0x40 JTAG> >0x40 JTAG> >0x40 JTAG> >0x40 JTAG> >0x40 JTAG> >0x2F8 JTAG>TotalIRLen = 9, IRPrint = 0x0011 >0x30 JTAG>
 >0x410 JTAG> >0x70 JTAG> >0x50 JTAG> >0x40 JTAG> >0x50 JTAG>AP-IDR: 0x24770011, Type: AHB-APStart searching for Cortex-M ROM table with ROMTable[0] @ 0xE00FF000.ROMTable[1]: Cortex-M ROM table found. >0x80 JTAG> >0x40 JTAG> >0x30 JTAG> >0x40 JTAG> >0x40 JTAG> >0x30 JTAG> >0x40 JTAG> >0x50 JTAG>Found Cortex-M4 r0p1, Little endian. -- CPU_ReadMem(4 bytes @ 0xE000EDF0) -- CPU_WriteMem(4 bytes @ 0xE000EDF0) -- CPU_ReadMem(4 bytes @ 0xE0002000)FPUnit: 6 code (BP) slots and 2 literal slots
 -- CPU_ReadMem(4 bytes @ 0xE000EDFC) -- CPU_WriteMem(4 bytes @ 0xE000EDFC) -- CPU_ReadMem(4 bytes @ 0xE0001000) -- CPU_WriteMem(4 bytes @ 0xE0001000) -- CPU_ReadMem(4 bytes @ 0xE000ED88) -- CPU_WriteMem(4 bytes @ 0xE000ED88) -- CPU_ReadMem(4 bytes @ 0xE000ED88) -- CPU_WriteMem(4 bytes @ 0xE000ED88)CoreSight components:ROMTbl 0 @ E00FF000 -- CPU_ReadMem(16 bytes @ 0xE00FF000) -- CPU_ReadMem(16 bytes @ 0xE000EFF0) -- CPU_ReadMem(16 bytes @ 0xE000EFE0)
ROMTbl 0 [0]: FFF0F000, CID: B105E00D, PID: 000BB00C SCS -- CPU_ReadMem(16 bytes @ 0xE0001FF0) -- CPU_ReadMem(16 bytes @ 0xE0001FE0)ROMTbl 0 [1]: FFF02000, CID: B105E00D, PID: 003BB002 DWT -- CPU_ReadMem(16 bytes @ 0xE0002FF0) -- CPU_ReadMem(16 bytes @ 0xE0002FE0)ROMTbl 0 [2]: FFF03000, CID: B105E00D, PID: 002BB003 FPB -- CPU_ReadMem(16 bytes @ 0xE0000FF0) -- CPU_ReadMem(16 bytes @ 0xE0000FE0)ROMTbl 0 [3]: FFF01000, CID: B105E00D, PID: 003BB001 ITM -- CPU_ReadMem(16 bytes @ 0xE00FF010)
 -- CPU_ReadMem(16 bytes @ 0xE0040FF0) -- CPU_ReadMem(16 bytes @ 0xE0040FE0)ROMTbl 0 [4]: FFF41000, CID: B105900D, PID: 000BB9A1 TPIU -- CPU_ReadMem(16 bytes @ 0xE0041FF0) -- CPU_ReadMem(16 bytes @ 0xE0041FE0)ROMTbl 0 [5]: FFF42000, CID: B105900D, PID: 000BB925 ETM ScanLen=9 NumDevices=2 aId[0]=0x4BA00477 aIrRead[0]=0 aScanLen[0]=0 aScanRead[0]=0 (0091ms, 0341ms total)
T0924 000:407 JLINK_JTAG_GetDeviceID(DeviceIndex = 0)  returns 0x4BA00477 (0000ms, 0341ms total)
T0924 000:407 JLINK_JTAG_GetDeviceInfo(DeviceIndex = 0)  returns 0x00 (0000ms, 0341ms total)
T0924 000:407 JLINK_JTAG_GetDeviceID(DeviceIndex = 1)  returns 0x6413041 (0000ms, 0341ms total)
T0924 000:407 JLINK_JTAG_GetDeviceInfo(DeviceIndex = 1)  returns 0x00 (0000ms, 0341ms total)
T0924 000:407 JLINK_GetDLLVersion()  returns 61009 (0000ms, 0341ms total)
T0924 000:407 JLINK_CORE_GetFound()  returns 0xE0000FF (0000ms, 0341ms total)
T0924 000:407 JLINK_GetDebugInfo(0x100) -- Value=0xE00FF003  returns 0x00 (0000ms, 0341ms total)
T0924 000:410 JLINK_GetDebugInfo(0x100) -- Value=0xE00FF003  returns 0x00 (0000ms, 0341ms total)
T0924 000:410 JLINK_GetDebugInfo(0x101) -- Value=0xE0041000  returns 0x00 (0000ms, 0341ms total)
T0924 000:410 JLINK_GetDebugInfo(0x102) -- Value=0x00000000  returns 0x00 (0000ms, 0341ms total)
T0924 000:410 JLINK_GetDebugInfo(0x103) -- Value=0xE0040000  returns 0x00 (0000ms, 0341ms total)
T0924 000:410 JLINK_GetDebugInfo(0x104) -- Value=0xE0000000  returns 0x00 (0000ms, 0341ms total)
T0924 000:410 JLINK_GetDebugInfo(0x105) -- Value=0xE0001000  returns 0x00 (0000ms, 0341ms total)
T0924 000:410 JLINK_GetDebugInfo(0x106) -- Value=0xE0002000  returns 0x00 (0000ms, 0341ms total)
T0924 000:410 JLINK_GetDebugInfo(0x107) -- Value=0xE000E000  returns 0x00 (0000ms, 0341ms total)
T0924 000:410 JLINK_GetDebugInfo(0x10C) -- Value=0xE000EDF0  returns 0x00 (0000ms, 0341ms total)
T0924 000:410 JLINK_ReadMemU32(0xE000EF40, 0x0001 Items, ...) -- CPU is running -- CPU_ReadMem(4 bytes @ 0xE000EF40) - Data: 21 00 11 10  returns 0x01 (0002ms, 0343ms total)
T0924 000:412 JLINK_ReadMemU32(0xE000EF44, 0x0001 Items, ...) -- CPU is running -- CPU_ReadMem(4 bytes @ 0xE000EF44) - Data: 11 00 00 11  returns 0x01 (0000ms, 0343ms total)
T0924 000:412 JLINK_ReadMemU32(0xE000ED00, 0x0001 Items, ...) -- CPU is running -- CPU_ReadMem(4 bytes @ 0xE000ED00) - Data: 41 C2 0F 41  returns 0x01 (0001ms, 0344ms total)
T0924 000:413 JLINK_SetResetType(JLINKARM_RESET_TYPE_NORMAL)  returns JLINKARM_RESET_TYPE_NORMAL (0000ms, 0344ms total)
T0924 000:413 JLINK_Reset() -- CPU is running -- CPU_WriteMem(4 bytes @ 0xE000EDF0) -- CPU is running -- CPU_WriteMem(4 bytes @ 0xE000EDFC) -- CPU is running -- CPU_WriteMem(4 bytes @ 0xE000ED0C) -- CPU is running -- CPU_ReadMem(4 bytes @ 0xE000EDF0) -- CPU is running -- CPU_ReadMem(4 bytes @ 0xE000EDF0) -- CPU is running -- CPU_WriteMem(4 bytes @ 0xE000EDF0) -- CPU is running -- CPU_WriteMem(4 bytes @ 0xE000EDFC) -- CPU is running -- CPU_ReadMem(4 bytes @ 0xE000EDF0) >0x80 JTAG> >0x40 JTAG> >0x30 JTAG>
 >0x40 JTAG> >0x50 JTAG> >0x40 JTAG> -- CPU_WriteMem(4 bytes @ 0xE000EDFC) -- CPU_WriteMem(4 bytes @ 0xE0001028) -- CPU_WriteMem(4 bytes @ 0xE0001038) -- CPU_WriteMem(4 bytes @ 0xE0001048) -- CPU_WriteMem(4 bytes @ 0xE0001058) -- CPU_WriteMem(4 bytes @ 0xE0002000) -- CPU_ReadMem(4 bytes @ 0xE000EDFC) -- CPU_ReadMem(4 bytes @ 0xE0001000) (0026ms, 0370ms total)
T0924 000:439 JLINK_Halt()  returns 0x00 (0000ms, 0370ms total)
T0924 000:439 JLINK_IsHalted()  returns TRUE (0000ms, 0370ms total)
T0924 000:439 JLINK_ReadMemU32(0xE000EDF0, 0x0001 Items, ...) -- CPU_ReadMem(4 bytes @ 0xE000EDF0) - Data: 03 00 03 00  returns 0x01 (0001ms, 0371ms total)
T0924 000:440 JLINK_WriteU32(0xE000EDF0, 0xA05F0003) -- CPU_WriteMem(4 bytes @ 0xE000EDF0)  returns 0x00 (0001ms, 0372ms total)
T0924 000:441 JLINK_WriteU32(0xE000EDFC, 0x01000000) -- CPU_WriteMem(4 bytes @ 0xE000EDFC)  returns 0x00 (0001ms, 0373ms total)
T0924 000:466 JLINK_GetHWStatus(...)  returns 0x00 (0000ms, 0373ms total)
T0924 000:485 JLINK_GetNumBPUnits(Type = 0xFFFFFF00)  returns 0x06 (0001ms, 0374ms total)
T0924 000:486 JLINK_GetNumBPUnits(Type = 0xF0)  returns 0x2000 (0000ms, 0374ms total)
T0924 000:486 JLINK_GetNumWPUnits()  returns 0x04 (0000ms, 0374ms total)
T0924 000:512 JLINK_GetSpeed()  returns 0x12C0 (0000ms, 0374ms total)
T0924 000:526 JLINK_ReadMemU32(0xE000E004, 0x0001 Items, ...) -- CPU_ReadMem(4 bytes @ 0xE000E004) - Data: 02 00 00 00  returns 0x01 (0001ms, 0375ms total)
T0924 000:527 JLINK_ReadMemU32(0xE000E004, 0x0001 Items, ...) -- CPU_ReadMem(4 bytes @ 0xE000E004) - Data: 02 00 00 00  returns 0x01 (0000ms, 0375ms total)
T0924 000:527 JLINK_WriteMem(0xE0001000, 0x001C Bytes, ...) - Data: 01 00 00 00 00 00 00 00 00 00 00 00 00 00 00 00 ... -- CPU_WriteMem(28 bytes @ 0xE0001000)  returns 0x1C (0003ms, 0378ms total)
T0924 000:530 JLINK_ReadMem (0xE0001000, 0x001C Bytes, ...) -- CPU_ReadMem(28 bytes @ 0xE0001000) - Data: 01 00 00 40 00 00 00 00 00 00 00 00 00 00 00 00 ...  returns 0x00 (0001ms, 0379ms total)
T0924 000:531 JLINK_Halt()  returns 0x00 (0000ms, 0379ms total)
T0924 000:531 JLINK_IsHalted()  returns TRUE (0000ms, 0379ms total)
T0924 000:538 JLINK_WriteMem(0x20000000, 0x0180 Bytes, ...) - Data: 00 BE 0A E0 0D 78 2D 06 68 40 08 24 40 00 00 D3 ... -- CPU_WriteMem(384 bytes @ 0x20000000)  returns 0x180 (0005ms, 0384ms total)
T0924 000:543 JLINK_WriteReg(R0, 0x08000000)  returns 0x00 (0000ms, 0384ms total)
T0924 000:543 JLINK_WriteReg(R1, 0x0A037A00)  returns 0x00 (0000ms, 0384ms total)
T0924 000:543 JLINK_WriteReg(R2, 0x00000001)  returns 0x00 (0001ms, 0385ms total)
T0924 000:544 JLINK_WriteReg(R3, 0x00000000)  returns 0x00 (0000ms, 0385ms total)
T0924 000:544 JLINK_WriteReg(R4, 0x00000000)  returns 0x00 (0000ms, 0385ms total)
T0924 000:544 JLINK_WriteReg(R5, 0x00000000)  returns 0x00 (0000ms, 0385ms total)
T0924 000:544 JLINK_WriteReg(R6, 0x00000000)  returns 0x00 (0000ms, 0385ms total)
T0924 000:544 JLINK_WriteReg(R7, 0x00000000)  returns 0x00 (0000ms, 0385ms total)
T0924 000:544 JLINK_WriteReg(R8, 0x00000000)  returns 0x00 (0000ms, 0385ms total)
T0924 000:544 JLINK_WriteReg(R9, 0x2000017C)  returns 0x00 (0000ms, 0385ms total)
T0924 000:544 JLINK_WriteReg(R10, 0x00000000)  returns 0x00 (0000ms, 0385ms total)
T0924 000:544 JLINK_WriteReg(R11, 0x00000000)  returns 0x00 (0000ms, 0385ms total)
T0924 000:544 JLINK_WriteReg(R12, 0x00000000)  returns 0x00 (0000ms, 0385ms total)
T0924 000:544 JLINK_WriteReg(R13 (SP), 0x20001000)  returns 0x00 (0000ms, 0385ms total)
T0924 000:544 JLINK_WriteReg(R14, 0x20000001)  returns 0x00 (0000ms, 0385ms total)
T0924 000:544 JLINK_WriteReg(R15 (PC), 0x20000054)  returns 0x00 (0000ms, 0385ms total)
T0924 000:544 JLINK_WriteReg(XPSR, 0x01000000)  returns 0x00 (0000ms, 0385ms total)
T0924 000:544 JLINK_WriteReg(MSP, 0x20001000)  returns 0x00 (0000ms, 0385ms total)
T0924 000:544 JLINK_WriteReg(PSP, 0x20001000)  returns 0x00 (0000ms, 0385ms total)
T0924 000:544 JLINK_WriteReg(CFBP, 0x00000000)  returns 0x00 (0000ms, 0385ms total)
T0924 000:544 JLINK_SetBPEx(Addr = 0x20000000, Type = 0xFFFFFFF2) -- CPU_ReadMem(2 bytes @ 0x20000000)  returns 0x00000001 (0001ms, 0386ms total)
T0924 000:545 JLINK_Go() -- CPU_WriteMem(2 bytes @ 0x20000000) -- CPU_ReadMem(4 bytes @ 0xE0001000) -- CPU_WriteMem(4 bytes @ 0xE0002008) -- CPU_WriteMem(4 bytes @ 0xE000200C) -- CPU_WriteMem(4 bytes @ 0xE0002010) -- CPU_WriteMem(4 bytes @ 0xE0002014) -- CPU_WriteMem(4 bytes @ 0xE0002018) -- CPU_WriteMem(4 bytes @ 0xE000201C) -- CPU_WriteMem(4 bytes @ 0xE0001004) (0006ms, 0392ms total)
T0924 000:551 JLINK_IsHalted() -- CPU_ReadMem(2 bytes @ 0x20000000)  returns TRUE (0005ms, 0397ms total)
T0924 000:556 JLINK_ReadReg(R15 (PC))  returns 0x20000000 (0000ms, 0392ms total)
T0924 000:556 JLINK_ClrBPEx(BPHandle = 0x00000001)  returns 0x00 (0000ms, 0392ms total)
T0924 000:556 JLINK_ReadReg(R0)  returns 0x00000000 (0000ms, 0392ms total)
T0924 000:557 JLINK_WriteReg(R0, 0x08000000)  returns 0x00 (0000ms, 0392ms total)
T0924 000:557 JLINK_WriteReg(R1, 0x00004000)  returns 0x00 (0000ms, 0392ms total)
T0924 000:557 JLINK_WriteReg(R2, 0x000000FF)  returns 0x00 (0000ms, 0392ms total)
T0924 000:557 JLINK_WriteReg(R3, 0x00000000)  returns 0x00 (0000ms, 0392ms total)
T0924 000:557 JLINK_WriteReg(R4, 0x00000000)  returns 0x00 (0000ms, 0392ms total)
T0924 000:557 JLINK_WriteReg(R5, 0x00000000)  returns 0x00 (0000ms, 0392ms total)
T0924 000:557 JLINK_WriteReg(R6, 0x00000000)  returns 0x00 (0000ms, 0392ms total)
T0924 000:557 JLINK_WriteReg(R7, 0x00000000)  returns 0x00 (0000ms, 0392ms total)
T0924 000:557 JLINK_WriteReg(R8, 0x00000000)  returns 0x00 (0000ms, 0392ms total)
T0924 000:557 JLINK_WriteReg(R9, 0x2000017C)  returns 0x00 (0000ms, 0392ms total)
T0924 000:557 JLINK_WriteReg(R10, 0x00000000)  returns 0x00 (0000ms, 0392ms total)
T0924 000:557 JLINK_WriteReg(R11, 0x00000000)  returns 0x00 (0000ms, 0392ms total)
T0924 000:557 JLINK_WriteReg(R12, 0x00000000)  returns 0x00 (0000ms, 0392ms total)
T0924 000:557 JLINK_WriteReg(R13 (SP), 0x20001000)  returns 0x00 (0000ms, 0392ms total)
T0924 000:557 JLINK_WriteReg(R14, 0x20000001)  returns 0x00 (0000ms, 0392ms total)
T0924 000:557 JLINK_WriteReg(R15 (PC), 0x20000020)  returns 0x00 (0001ms, 0393ms total)
T0924 000:558 JLINK_WriteReg(XPSR, 0x01000000)  returns 0x00 (0000ms, 0393ms total)
T0924 000:558 JLINK_WriteReg(MSP, 0x20001000)  returns 0x00 (0000ms, 0393ms total)
T0924 000:558 JLINK_WriteReg(PSP, 0x20001000)  returns 0x00 (0000ms, 0393ms total)
T0924 000:558 JLINK_WriteReg(CFBP, 0x00000000)  returns 0x00 (0000ms, 0393ms total)
T0924 000:558 JLINK_SetBPEx(Addr = 0x20000000, Type = 0xFFFFFFF2)  returns 0x00000002 (0000ms, 0393ms total)
T0924 000:558 JLINK_Go() -- CPU_ReadMem(4 bytes @ 0xE0001000) (0002ms, 0395ms total)
T0924 000:560 JLINK_IsHalted() -- CPU_ReadMem(2 bytes @ 0x20000000)  returns TRUE (0004ms, 0399ms total)
T0924 000:564 JLINK_ReadReg(R15 (PC))  returns 0x20000000 (0001ms, 0396ms total)
T0924 000:565 JLINK_ClrBPEx(BPHandle = 0x00000002)  returns 0x00 (0000ms, 0396ms total)
T0924 000:565 JLINK_ReadReg(R0)  returns 0x00000001 (0000ms, 0396ms total)
T0924 000:565 JLINK_WriteReg(R0, 0x08000000)  returns 0x00 (0000ms, 0396ms total)
T0924 000:565 JLINK_WriteReg(R1, 0x00004000)  returns 0x00 (0000ms, 0396ms total)
T0924 000:565 JLINK_WriteReg(R2, 0x000000FF)  returns 0x00 (0000ms, 0396ms total)
T0924 000:565 JLINK_WriteReg(R3, 0x00000000)  returns 0x00 (0000ms, 0396ms total)
T0924 000:565 JLINK_WriteReg(R4, 0x00000000)  returns 0x00 (0000ms, 0396ms total)
T0924 000:565 JLINK_WriteReg(R5, 0x00000000)  returns 0x00 (0000ms, 0396ms total)
T0924 000:565 JLINK_WriteReg(R6, 0x00000000)  returns 0x00 (0000ms, 0396ms total)
T0924 000:565 JLINK_WriteReg(R7, 0x00000000)  returns 0x00 (0000ms, 0396ms total)
T0924 000:565 JLINK_WriteReg(R8, 0x00000000)  returns 0x00 (0000ms, 0396ms total)
T0924 000:565 JLINK_WriteReg(R9, 0x2000017C)  returns 0x00 (0000ms, 0396ms total)
T0924 000:565 JLINK_WriteReg(R10, 0x00000000)  returns 0x00 (0000ms, 0396ms total)
T0924 000:565 JLINK_WriteReg(R11, 0x00000000)  returns 0x00 (0000ms, 0396ms total)
T0924 000:565 JLINK_WriteReg(R12, 0x00000000)  returns 0x00 (0000ms, 0396ms total)
T0924 000:565 JLINK_WriteReg(R13 (SP), 0x20001000)  returns 0x00 (0000ms, 0396ms total)
T0924 000:565 JLINK_WriteReg(R14, 0x20000001)  returns 0x00 (0000ms, 0396ms total)
T0924 000:565 JLINK_WriteReg(R15 (PC), 0x200000BC)  returns 0x00 (0001ms, 0397ms total)
T0924 000:566 JLINK_WriteReg(XPSR, 0x01000000)  returns 0x00 (0000ms, 0397ms total)
T0924 000:566 JLINK_WriteReg(MSP, 0x20001000)  returns 0x00 (0000ms, 0397ms total)
T0924 000:566 JLINK_WriteReg(PSP, 0x20001000)  returns 0x00 (0000ms, 0397ms total)
T0924 000:566 JLINK_WriteReg(CFBP, 0x00000000)  returns 0x00 (0000ms, 0397ms total)
T0924 000:566 JLINK_SetBPEx(Addr = 0x20000000, Type = 0xFFFFFFF2)  returns 0x00000003 (0000ms, 0397ms total)
T0924 000:566 JLINK_Go() -- CPU_ReadMem(4 bytes @ 0xE0001000) (0002ms, 0399ms total)
T0924 000:568 JLINK_IsHalted()  returns FALSE (0001ms, 0400ms total)
T0924 000:781 JLINK_IsHalted()  returns FALSE (0000ms, 0399ms total)
T0924 000:783 JLINK_IsHalted()  returns FALSE (0000ms, 0399ms total)
T0924 000:788 JLINK_IsHalted()  returns FALSE (0001ms, 0400ms total)
T0924 000:793 JLINK_IsHalted()  returns FALSE (0000ms, 0399ms total)
T0924 000:795 JLINK_IsHalted()  returns FALSE (0000ms, 0399ms total)
T0924 000:797 JLINK_IsHalted()  returns FALSE (0000ms, 0399ms total)
T0924 000:799 JLINK_IsHalted()  returns FALSE (0001ms, 0400ms total)
T0924 000:804 JLINK_IsHalted()  returns FALSE (0000ms, 0399ms total)
T0924 000:806 JLINK_IsHalted()  returns FALSE (0001ms, 0400ms total)
T0924 000:809 JLINK_IsHalted()  returns FALSE (0001ms, 0400ms total)
T0924 000:814 JLINK_IsHalted()  returns FALSE (0000ms, 0399ms total)
T0924 000:819 JLINK_IsHalted()  returns FALSE (0000ms, 0399ms total)
T0924 000:821 JLINK_IsHalted()  returns FALSE (0000ms, 0399ms total)
T0924 000:823 JLINK_IsHalted()  returns FALSE (0000ms, 0399ms total)
T0924 000:830 JLINK_IsHalted()  returns FALSE (0001ms, 0400ms total)
T0924 000:833 JLINK_IsHalted()  returns FALSE (0000ms, 0399ms total)
T0924 000:835 JLINK_IsHalted()  returns FALSE (0001ms, 0400ms total)
T0924 000:838 JLINK_IsHalted()  returns FALSE (0000ms, 0399ms total)
T0924 000:845 JLINK_IsHalted()  returns FALSE (0000ms, 0399ms total)
T0924 000:847 JLINK_IsHalted()  returns FALSE (0000ms, 0399ms total)
T0924 000:854 JLINK_IsHalted()  returns FALSE (0001ms, 0400ms total)
T0924 000:857 JLINK_IsHalted()  returns FALSE (0000ms, 0399ms total)
T0924 000:859 JLINK_IsHalted()  returns FALSE (0001ms, 0400ms total)
T0924 000:862 JLINK_IsHalted()  returns FALSE (0000ms, 0399ms total)
T0924 000:866 JLINK_IsHalted()  returns FALSE (0000ms, 0399ms total)
T0924 000:873 JLINK_IsHalted()  returns FALSE (0000ms, 0399ms total)
T0924 000:875 JLINK_IsHalted()  returns FALSE (0000ms, 0399ms total)
T0924 000:879 JLINK_IsHalted()  returns FALSE (0001ms, 0400ms total)
T0924 000:884 JLINK_IsHalted()  returns FALSE (0000ms, 0399ms total)
T0924 000:886 JLINK_IsHalted()  returns FALSE (0001ms, 0400ms total)
T0924 000:889 JLINK_IsHalted()  returns FALSE (0000ms, 0399ms total)
T0924 000:894 JLINK_IsHalted()  returns FALSE (0000ms, 0399ms total)
T0924 000:898 JLINK_IsHalted()  returns FALSE (0000ms, 0399ms total)
T0924 000:900 JLINK_IsHalted()  returns FALSE (0000ms, 0399ms total)
T0924 000:902 JLINK_IsHalted()  returns FALSE (0000ms, 0399ms total)
T0924 000:906 JLINK_IsHalted()  returns FALSE (0001ms, 0400ms total)
T0924 000:911 JLINK_IsHalted()  returns FALSE (0001ms, 0400ms total)
T0924 000:914 JLINK_IsHalted()  returns FALSE (0000ms, 0399ms total)
T0924 000:916 JLINK_IsHalted()  returns FALSE (0000ms, 0399ms total)
T0924 000:918 JLINK_IsHalted()  returns FALSE (0000ms, 0399ms total)
T0924 000:920 JLINK_IsHalted()  returns FALSE (0000ms, 0399ms total)
T0924 000:924 JLINK_IsHalted()  returns FALSE (0000ms, 0399ms total)
T0924 000:926 JLINK_IsHalted()  returns FALSE (0000ms, 0399ms total)
T0924 000:928 JLINK_IsHalted()  returns FALSE (0000ms, 0399ms total)
T0924 000:932 JLINK_IsHalted()  returns FALSE (0000ms, 0399ms total)
T0924 000:934 JLINK_IsHalted()  returns FALSE (0001ms, 0400ms total)
T0924 000:937 JLINK_IsHalted()  returns FALSE (0000ms, 0399ms total)
T0924 000:939 JLINK_IsHalted()  returns FALSE (0001ms, 0400ms total)
T0924 000:942 JLINK_IsHalted()  returns FALSE (0000ms, 0399ms total)
T0924 000:944 JLINK_IsHalted() -- CPU_ReadMem(2 bytes @ 0x20000000)  returns TRUE (0003ms, 0402ms total)
T0924 000:947 JLINK_ReadReg(R15 (PC))  returns 0x20000000 (0000ms, 0399ms total)
T0924 000:947 JLINK_ClrBPEx(BPHandle = 0x00000003)  returns 0x00 (0000ms, 0399ms total)
T0924 000:947 JLINK_ReadReg(R0)  returns 0x00000000 (0000ms, 0399ms total)
T0924 000:947 JLINK_WriteReg(R0, 0x00000001)  returns 0x00 (0000ms, 0399ms total)
T0924 000:947 JLINK_WriteReg(R1, 0x00004000)  returns 0x00 (0000ms, 0399ms total)
T0924 000:947 JLINK_WriteReg(R2, 0x000000FF)  returns 0x00 (0000ms, 0399ms total)
T0924 000:947 JLINK_WriteReg(R3, 0x00000000)  returns 0x00 (0000ms, 0399ms total)
T0924 000:947 JLINK_WriteReg(R4, 0x00000000)  returns 0x00 (0000ms, 0399ms total)
T0924 000:947 JLINK_WriteReg(R5, 0x00000000)  returns 0x00 (0000ms, 0399ms total)
T0924 000:947 JLINK_WriteReg(R6, 0x00000000)  returns 0x00 (0000ms, 0399ms total)
T0924 000:947 JLINK_WriteReg(R7, 0x00000000)  returns 0x00 (0000ms, 0399ms total)
T0924 000:947 JLINK_WriteReg(R8, 0x00000000)  returns 0x00 (0000ms, 0399ms total)
T0924 000:947 JLINK_WriteReg(R9, 0x2000017C)  returns 0x00 (0000ms, 0399ms total)
T0924 000:947 JLINK_WriteReg(R10, 0x00000000)  returns 0x00 (0000ms, 0399ms total)
T0924 000:947 JLINK_WriteReg(R11, 0x00000000)  returns 0x00 (0000ms, 0399ms total)
T0924 000:947 JLINK_WriteReg(R12, 0x00000000)  returns 0x00 (0000ms, 0399ms total)
T0924 000:947 JLINK_WriteReg(R13 (SP), 0x20001000)  returns 0x00 (0001ms, 0400ms total)
T0924 000:948 JLINK_WriteReg(R14, 0x20000001)  returns 0x00 (0000ms, 0400ms total)
T0924 000:948 JLINK_WriteReg(R15 (PC), 0x20000082)  returns 0x00 (0000ms, 0400ms total)
T0924 000:948 JLINK_WriteReg(XPSR, 0x01000000)  returns 0x00 (0000ms, 0400ms total)
T0924 000:948 JLINK_WriteReg(MSP, 0x20001000)  returns 0x00 (0000ms, 0400ms total)
T0924 000:948 JLINK_WriteReg(PSP, 0x20001000)  returns 0x00 (0000ms, 0400ms total)
T0924 000:948 JLINK_WriteReg(CFBP, 0x00000000)  returns 0x00 (0000ms, 0400ms total)
T0924 000:948 JLINK_SetBPEx(Addr = 0x20000000, Type = 0xFFFFFFF2)  returns 0x00000004 (0000ms, 0400ms total)
T0924 000:948 JLINK_Go() -- CPU_ReadMem(4 bytes @ 0xE0001000) (0003ms, 0403ms total)
T0924 000:951 JLINK_IsHalted() -- CPU_ReadMem(2 bytes @ 0x20000000)  returns TRUE (0004ms, 0407ms total)
T0924 000:955 JLINK_ReadReg(R15 (PC))  returns 0x20000000 (0000ms, 0403ms total)
T0924 000:955 JLINK_ClrBPEx(BPHandle = 0x00000004)  returns 0x00 (0000ms, 0403ms total)
T0924 000:955 JLINK_ReadReg(R0)  returns 0x00000000 (0000ms, 0403ms total)
T0924 001:020 JLINK_WriteMem(0x20000000, 0x0180 Bytes, ...) - Data: 00 BE 0A E0 0D 78 2D 06 68 40 08 24 40 00 00 D3 ... -- CPU_WriteMem(384 bytes @ 0x20000000)  returns 0x180 (0004ms, 0407ms total)
T0924 001:024 JLINK_WriteReg(R0, 0x08000000)  returns 0x00 (0000ms, 0407ms total)
T0924 001:024 JLINK_WriteReg(R1, 0x0A037A00)  returns 0x00 (0000ms, 0407ms total)
T0924 001:024 JLINK_WriteReg(R2, 0x00000002)  returns 0x00 (0000ms, 0407ms total)
T0924 001:024 JLINK_WriteReg(R3, 0x00000000)  returns 0x00 (0000ms, 0407ms total)
T0924 001:024 JLINK_WriteReg(R4, 0x00000000)  returns 0x00 (0000ms, 0407ms total)
T0924 001:024 JLINK_WriteReg(R5, 0x00000000)  returns 0x00 (0000ms, 0407ms total)
T0924 001:024 JLINK_WriteReg(R6, 0x00000000)  returns 0x00 (0000ms, 0407ms total)
T0924 001:024 JLINK_WriteReg(R7, 0x00000000)  returns 0x00 (0000ms, 0407ms total)
T0924 001:024 JLINK_WriteReg(R8, 0x00000000)  returns 0x00 (0000ms, 0407ms total)
T0924 001:024 JLINK_WriteReg(R9, 0x2000017C)  returns 0x00 (0000ms, 0407ms total)
T0924 001:024 JLINK_WriteReg(R10, 0x00000000)  returns 0x00 (0000ms, 0407ms total)
T0924 001:024 JLINK_WriteReg(R11, 0x00000000)  returns 0x00 (0000ms, 0407ms total)
T0924 001:024 JLINK_WriteReg(R12, 0x00000000)  returns 0x00 (0001ms, 0408ms total)
T0924 001:025 JLINK_WriteReg(R13 (SP), 0x20001000)  returns 0x00 (0000ms, 0408ms total)
T0924 001:025 JLINK_WriteReg(R14, 0x20000001)  returns 0x00 (0000ms, 0408ms total)
T0924 001:025 JLINK_WriteReg(R15 (PC), 0x20000054)  returns 0x00 (0000ms, 0408ms total)
T0924 001:025 JLINK_WriteReg(XPSR, 0x01000000)  returns 0x00 (0000ms, 0408ms total)
T0924 001:025 JLINK_WriteReg(MSP, 0x20001000)  returns 0x00 (0000ms, 0408ms total)
T0924 001:025 JLINK_WriteReg(PSP, 0x20001000)  returns 0x00 (0000ms, 0408ms total)
T0924 001:025 JLINK_WriteReg(CFBP, 0x00000000)  returns 0x00 (0000ms, 0408ms total)
T0924 001:025 JLINK_SetBPEx(Addr = 0x20000000, Type = 0xFFFFFFF2) -- CPU_ReadMem(2 bytes @ 0x20000000)  returns 0x00000005 (0001ms, 0409ms total)
T0924 001:026 JLINK_Go() -- CPU_WriteMem(2 bytes @ 0x20000000) -- CPU_ReadMem(4 bytes @ 0xE0001000) (0002ms, 0411ms total)
T0924 001:028 JLINK_IsHalted() -- CPU_ReadMem(2 bytes @ 0x20000000)  returns TRUE (0005ms, 0416ms total)
T0924 001:033 JLINK_ReadReg(R15 (PC))  returns 0x20000000 (0000ms, 0411ms total)
T0924 001:033 JLINK_ClrBPEx(BPHandle = 0x00000005)  returns 0x00 (0000ms, 0411ms total)
T0924 001:033 JLINK_ReadReg(R0)  returns 0x00000000 (0000ms, 0411ms total)
T0924 001:034 JLINK_WriteMem(0x20000180, 0x0400 Bytes, ...) - Data: 80 53 00 20 A5 14 00 08 79 03 00 08 7B 03 00 08 ... -- CPU_WriteMem(1024 bytes @ 0x20000180)  returns 0x400 (0008ms, 0419ms total)
T0924 001:042 JLINK_WriteReg(R0, 0x08000000)  returns 0x00 (0000ms, 0419ms total)
T0924 001:042 JLINK_WriteReg(R1, 0x00000400)  returns 0x00 (0000ms, 0419ms total)
T0924 001:042 JLINK_WriteReg(R2, 0x20000180)  returns 0x00 (0000ms, 0419ms total)
T0924 001:042 JLINK_WriteReg(R3, 0x00000000)  returns 0x00 (0000ms, 0419ms total)
T0924 001:042 JLINK_WriteReg(R4, 0x00000000)  returns 0x00 (0000ms, 0419ms total)
T0924 001:042 JLINK_WriteReg(R5, 0x00000000)  returns 0x00 (0000ms, 0419ms total)
T0924 001:042 JLINK_WriteReg(R6, 0x00000000)  returns 0x00 (0000ms, 0419ms total)
T0924 001:042 JLINK_WriteReg(R7, 0x00000000)  returns 0x00 (0000ms, 0419ms total)
T0924 001:042 JLINK_WriteReg(R8, 0x00000000)  returns 0x00 (0000ms, 0419ms total)
T0924 001:042 JLINK_WriteReg(R9, 0x2000017C)  returns 0x00 (0000ms, 0419ms total)
T0924 001:042 JLINK_WriteReg(R10, 0x00000000)  returns 0x00 (0000ms, 0419ms total)
T0924 001:042 JLINK_WriteReg(R11, 0x00000000)  returns 0x00 (0000ms, 0419ms total)
T0924 001:042 JLINK_WriteReg(R12, 0x00000000)  returns 0x00 (0001ms, 0420ms total)
T0924 001:043 JLINK_WriteReg(R13 (SP), 0x20001000)  returns 0x00 (0000ms, 0420ms total)
T0924 001:043 JLINK_WriteReg(R14, 0x20000001)  returns 0x00 (0000ms, 0420ms total)
T0924 001:043 JLINK_WriteReg(R15 (PC), 0x20000108)  returns 0x00 (0000ms, 0420ms total)
T0924 001:043 JLINK_WriteReg(XPSR, 0x01000000)  returns 0x00 (0000ms, 0420ms total)
T0924 001:043 JLINK_WriteReg(MSP, 0x20001000)  returns 0x00 (0000ms, 0420ms total)
T0924 001:043 JLINK_WriteReg(PSP, 0x20001000)  returns 0x00 (0000ms, 0420ms total)
T0924 001:043 JLINK_WriteReg(CFBP, 0x00000000)  returns 0x00 (0000ms, 0420ms total)
T0924 001:043 JLINK_SetBPEx(Addr = 0x20000000, Type = 0xFFFFFFF2)  returns 0x00000006 (0000ms, 0420ms total)
T0924 001:043 JLINK_Go() -- CPU_ReadMem(4 bytes @ 0xE0001000) (0002ms, 0422ms total)
T0924 001:045 JLINK_IsHalted()  returns FALSE (0001ms, 0423ms total)
T0924 001:061 JLINK_IsHalted() -- CPU_ReadMem(2 bytes @ 0x20000000)  returns TRUE (0004ms, 0426ms total)
T0924 001:065 JLINK_ReadReg(R15 (PC))  returns 0x20000000 (0000ms, 0422ms total)
T0924 001:065 JLINK_ClrBPEx(BPHandle = 0x00000006)  returns 0x00 (0000ms, 0422ms total)
T0924 001:065 JLINK_ReadReg(R0)  returns 0x00000000 (0000ms, 0422ms total)
T0924 001:067 JLINK_WriteMem(0x20000180, 0x0400 Bytes, ...) - Data: 80 50 5F 49 40 31 08 60 5E 48 00 68 40 F4 40 40 ... -- CPU_WriteMem(1024 bytes @ 0x20000180)  returns 0x400 (0008ms, 0430ms total)
T0924 001:075 JLINK_WriteReg(R0, 0x08000400)  returns 0x00 (0000ms, 0430ms total)
T0924 001:075 JLINK_WriteReg(R1, 0x00000400)  returns 0x00 (0000ms, 0430ms total)
T0924 001:075 JLINK_WriteReg(R2, 0x20000180)  returns 0x00 (0000ms, 0430ms total)
T0924 001:075 JLINK_WriteReg(R3, 0x00000000)  returns 0x00 (0000ms, 0430ms total)
T0924 001:075 JLINK_WriteReg(R4, 0x00000000)  returns 0x00 (0000ms, 0430ms total)
T0924 001:075 JLINK_WriteReg(R5, 0x00000000)  returns 0x00 (0000ms, 0430ms total)
T0924 001:075 JLINK_WriteReg(R6, 0x00000000)  returns 0x00 (0000ms, 0430ms total)
T0924 001:075 JLINK_WriteReg(R7, 0x00000000)  returns 0x00 (0000ms, 0430ms total)
T0924 001:075 JLINK_WriteReg(R8, 0x00000000)  returns 0x00 (0000ms, 0430ms total)
T0924 001:075 JLINK_WriteReg(R9, 0x2000017C)  returns 0x00 (0000ms, 0430ms total)
T0924 001:076 JLINK_WriteReg(R10, 0x00000000)  returns 0x00 (0000ms, 0431ms total)
T0924 001:076 JLINK_WriteReg(R11, 0x00000000)  returns 0x00 (0000ms, 0431ms total)
T0924 001:076 JLINK_WriteReg(R12, 0x00000000)  returns 0x00 (0000ms, 0431ms total)
T0924 001:076 JLINK_WriteReg(R13 (SP), 0x20001000)  returns 0x00 (0000ms, 0431ms total)
T0924 001:076 JLINK_WriteReg(R14, 0x20000001)  returns 0x00 (0000ms, 0431ms total)
T0924 001:076 JLINK_WriteReg(R15 (PC), 0x20000108)  returns 0x00 (0000ms, 0431ms total)
T0924 001:076 JLINK_WriteReg(XPSR, 0x01000000)  returns 0x00 (0000ms, 0431ms total)
T0924 001:076 JLINK_WriteReg(MSP, 0x20001000)  returns 0x00 (0000ms, 0431ms total)
T0924 001:076 JLINK_WriteReg(PSP, 0x20001000)  returns 0x00 (0000ms, 0431ms total)
T0924 001:076 JLINK_WriteReg(CFBP, 0x00000000)  returns 0x00 (0000ms, 0431ms total)
T0924 001:076 JLINK_SetBPEx(Addr = 0x20000000, Type = 0xFFFFFFF2)  returns 0x00000007 (0000ms, 0431ms total)
T0924 001:076 JLINK_Go() -- CPU_ReadMem(4 bytes @ 0xE0001000) (0002ms, 0433ms total)
T0924 001:078 JLINK_IsHalted()  returns FALSE (0001ms, 0434ms total)
T0924 001:086 JLINK_IsHalted() -- CPU_ReadMem(2 bytes @ 0x20000000)  returns TRUE (0004ms, 0437ms total)
T0924 001:090 JLINK_ReadReg(R15 (PC))  returns 0x20000000 (0000ms, 0433ms total)
T0924 001:090 JLINK_ClrBPEx(BPHandle = 0x00000007)  returns 0x00 (0000ms, 0433ms total)
T0924 001:090 JLINK_ReadReg(R0)  returns 0x00000000 (0000ms, 0433ms total)
T0924 001:094 JLINK_WriteMem(0x20000180, 0x0400 Bytes, ...) - Data: 04 20 02 F0 C9 FA 10 20 00 90 69 46 CD 48 00 F0 ... -- CPU_WriteMem(1024 bytes @ 0x20000180)  returns 0x400 (0008ms, 0441ms total)
T0924 001:102 JLINK_WriteReg(R0, 0x08000800)  returns 0x00 (0000ms, 0441ms total)
T0924 001:102 JLINK_WriteReg(R1, 0x00000400)  returns 0x00 (0000ms, 0441ms total)
T0924 001:102 JLINK_WriteReg(R2, 0x20000180)  returns 0x00 (0000ms, 0441ms total)
T0924 001:102 JLINK_WriteReg(R3, 0x00000000)  returns 0x00 (0000ms, 0441ms total)
T0924 001:102 JLINK_WriteReg(R4, 0x00000000)  returns 0x00 (0000ms, 0441ms total)
T0924 001:102 JLINK_WriteReg(R5, 0x00000000)  returns 0x00 (0000ms, 0441ms total)
T0924 001:102 JLINK_WriteReg(R6, 0x00000000)  returns 0x00 (0000ms, 0441ms total)
T0924 001:102 JLINK_WriteReg(R7, 0x00000000)  returns 0x00 (0000ms, 0441ms total)
T0924 001:102 JLINK_WriteReg(R8, 0x00000000)  returns 0x00 (0000ms, 0441ms total)
T0924 001:102 JLINK_WriteReg(R9, 0x2000017C)  returns 0x00 (0000ms, 0441ms total)
T0924 001:102 JLINK_WriteReg(R10, 0x00000000)  returns 0x00 (0000ms, 0441ms total)
T0924 001:102 JLINK_WriteReg(R11, 0x00000000)  returns 0x00 (0000ms, 0441ms total)
T0924 001:102 JLINK_WriteReg(R12, 0x00000000)  returns 0x00 (0000ms, 0441ms total)
T0924 001:102 JLINK_WriteReg(R13 (SP), 0x20001000)  returns 0x00 (0000ms, 0441ms total)
T0924 001:102 JLINK_WriteReg(R14, 0x20000001)  returns 0x00 (0001ms, 0442ms total)
T0924 001:103 JLINK_WriteReg(R15 (PC), 0x20000108)  returns 0x00 (0000ms, 0442ms total)
T0924 001:103 JLINK_WriteReg(XPSR, 0x01000000)  returns 0x00 (0000ms, 0442ms total)
T0924 001:103 JLINK_WriteReg(MSP, 0x20001000)  returns 0x00 (0000ms, 0442ms total)
T0924 001:103 JLINK_WriteReg(PSP, 0x20001000)  returns 0x00 (0000ms, 0442ms total)
T0924 001:103 JLINK_WriteReg(CFBP, 0x00000000)  returns 0x00 (0000ms, 0442ms total)
T0924 001:103 JLINK_SetBPEx(Addr = 0x20000000, Type = 0xFFFFFFF2)  returns 0x00000008 (0000ms, 0442ms total)
T0924 001:103 JLINK_Go() -- CPU_ReadMem(4 bytes @ 0xE0001000) (0002ms, 0444ms total)
T0924 001:106 JLINK_IsHalted()  returns FALSE (0000ms, 0444ms total)
T0924 001:114 JLINK_IsHalted() -- CPU_ReadMem(2 bytes @ 0x20000000)  returns TRUE (0004ms, 0448ms total)
T0924 001:118 JLINK_ReadReg(R15 (PC))  returns 0x20000000 (0000ms, 0444ms total)
T0924 001:118 JLINK_ClrBPEx(BPHandle = 0x00000008)  returns 0x00 (0000ms, 0444ms total)
T0924 001:118 JLINK_ReadReg(R0)  returns 0x00000000 (0000ms, 0444ms total)
T0924 001:119 JLINK_WriteMem(0x20000180, 0x0400 Bytes, ...) - Data: 10 BD 10 B5 32 20 00 F0 31 FB 01 20 6F 49 08 60 ... -- CPU_WriteMem(1024 bytes @ 0x20000180)  returns 0x400 (0009ms, 0453ms total)
T0924 001:128 JLINK_WriteReg(R0, 0x08000C00)  returns 0x00 (0000ms, 0453ms total)
T0924 001:128 JLINK_WriteReg(R1, 0x00000400)  returns 0x00 (0000ms, 0453ms total)
T0924 001:128 JLINK_WriteReg(R2, 0x20000180)  returns 0x00 (0000ms, 0453ms total)
T0924 001:128 JLINK_WriteReg(R3, 0x00000000)  returns 0x00 (0000ms, 0453ms total)
T0924 001:128 JLINK_WriteReg(R4, 0x00000000)  returns 0x00 (0000ms, 0453ms total)
T0924 001:128 JLINK_WriteReg(R5, 0x00000000)  returns 0x00 (0000ms, 0453ms total)
T0924 001:128 JLINK_WriteReg(R6, 0x00000000)  returns 0x00 (0000ms, 0453ms total)
T0924 001:128 JLINK_WriteReg(R7, 0x00000000)  returns 0x00 (0000ms, 0453ms total)
T0924 001:128 JLINK_WriteReg(R8, 0x00000000)  returns 0x00 (0000ms, 0453ms total)
T0924 001:128 JLINK_WriteReg(R9, 0x2000017C)  returns 0x00 (0000ms, 0453ms total)
T0924 001:128 JLINK_WriteReg(R10, 0x00000000)  returns 0x00 (0000ms, 0453ms total)
T0924 001:129 JLINK_WriteReg(R11, 0x00000000)  returns 0x00 (0000ms, 0454ms total)
T0924 001:129 JLINK_WriteReg(R12, 0x00000000)  returns 0x00 (0000ms, 0454ms total)
T0924 001:129 JLINK_WriteReg(R13 (SP), 0x20001000)  returns 0x00 (0000ms, 0454ms total)
T0924 001:129 JLINK_WriteReg(R14, 0x20000001)  returns 0x00 (0000ms, 0454ms total)
T0924 001:129 JLINK_WriteReg(R15 (PC), 0x20000108)  returns 0x00 (0000ms, 0454ms total)
T0924 001:129 JLINK_WriteReg(XPSR, 0x01000000)  returns 0x00 (0000ms, 0454ms total)
T0924 001:129 JLINK_WriteReg(MSP, 0x20001000)  returns 0x00 (0000ms, 0454ms total)
T0924 001:129 JLINK_WriteReg(PSP, 0x20001000)  returns 0x00 (0000ms, 0454ms total)
T0924 001:129 JLINK_WriteReg(CFBP, 0x00000000)  returns 0x00 (0000ms, 0454ms total)
T0924 001:129 JLINK_SetBPEx(Addr = 0x20000000, Type = 0xFFFFFFF2)  returns 0x00000009 (0000ms, 0454ms total)
T0924 001:129 JLINK_Go() -- CPU_ReadMem(4 bytes @ 0xE0001000) (0002ms, 0456ms total)
T0924 001:131 JLINK_IsHalted()  returns FALSE (0002ms, 0458ms total)
T0924 001:139 JLINK_IsHalted() -- CPU_ReadMem(2 bytes @ 0x20000000)  returns TRUE (0003ms, 0459ms total)
T0924 001:142 JLINK_ReadReg(R15 (PC))  returns 0x20000000 (0000ms, 0456ms total)
T0924 001:142 JLINK_ClrBPEx(BPHandle = 0x00000009)  returns 0x00 (0001ms, 0457ms total)
T0924 001:143 JLINK_ReadReg(R0)  returns 0x00000000 (0000ms, 0457ms total)
T0924 001:144 JLINK_WriteMem(0x20000180, 0x0400 Bytes, ...) - Data: 48 55 00 21 04 EB 84 00 02 EB 40 12 68 1C 11 54 ... -- CPU_WriteMem(1024 bytes @ 0x20000180)  returns 0x400 (0009ms, 0466ms total)
T0924 001:153 JLINK_WriteReg(R0, 0x08001000)  returns 0x00 (0000ms, 0466ms total)
T0924 001:153 JLINK_WriteReg(R1, 0x00000400)  returns 0x00 (0000ms, 0466ms total)
T0924 001:153 JLINK_WriteReg(R2, 0x20000180)  returns 0x00 (0000ms, 0466ms total)
T0924 001:153 JLINK_WriteReg(R3, 0x00000000)  returns 0x00 (0000ms, 0466ms total)
T0924 001:153 JLINK_WriteReg(R4, 0x00000000)  returns 0x00 (0000ms, 0466ms total)
T0924 001:153 JLINK_WriteReg(R5, 0x00000000)  returns 0x00 (0000ms, 0466ms total)
T0924 001:153 JLINK_WriteReg(R6, 0x00000000)  returns 0x00 (0000ms, 0466ms total)
T0924 001:153 JLINK_WriteReg(R7, 0x00000000)  returns 0x00 (0000ms, 0466ms total)
T0924 001:153 JLINK_WriteReg(R8, 0x00000000)  returns 0x00 (0000ms, 0466ms total)
T0924 001:153 JLINK_WriteReg(R9, 0x2000017C)  returns 0x00 (0000ms, 0466ms total)
T0924 001:153 JLINK_WriteReg(R10, 0x00000000)  returns 0x00 (0000ms, 0466ms total)
T0924 001:154 JLINK_WriteReg(R11, 0x00000000)  returns 0x00 (0000ms, 0467ms total)
T0924 001:154 JLINK_WriteReg(R12, 0x00000000)  returns 0x00 (0000ms, 0467ms total)
T0924 001:154 JLINK_WriteReg(R13 (SP), 0x20001000)  returns 0x00 (0000ms, 0467ms total)
T0924 001:154 JLINK_WriteReg(R14, 0x20000001)  returns 0x00 (0000ms, 0467ms total)
T0924 001:154 JLINK_WriteReg(R15 (PC), 0x20000108)  returns 0x00 (0000ms, 0467ms total)
T0924 001:154 JLINK_WriteReg(XPSR, 0x01000000)  returns 0x00 (0000ms, 0467ms total)
T0924 001:154 JLINK_WriteReg(MSP, 0x20001000)  returns 0x00 (0000ms, 0467ms total)
T0924 001:154 JLINK_WriteReg(PSP, 0x20001000)  returns 0x00 (0000ms, 0467ms total)
T0924 001:154 JLINK_WriteReg(CFBP, 0x00000000)  returns 0x00 (0000ms, 0467ms total)
T0924 001:154 JLINK_SetBPEx(Addr = 0x20000000, Type = 0xFFFFFFF2)  returns 0x0000000A (0000ms, 0467ms total)
T0924 001:154 JLINK_Go() -- CPU_ReadMem(4 bytes @ 0xE0001000) (0002ms, 0469ms total)
T0924 001:156 JLINK_IsHalted()  returns FALSE (0001ms, 0470ms total)
T0924 001:159 JLINK_IsHalted()  returns FALSE (0001ms, 0470ms total)
T0924 001:162 JLINK_IsHalted() -- CPU_ReadMem(2 bytes @ 0x20000000)  returns TRUE (0004ms, 0473ms total)
T0924 001:166 JLINK_ReadReg(R15 (PC))  returns 0x20000000 (0000ms, 0469ms total)
T0924 001:166 JLINK_ClrBPEx(BPHandle = 0x0000000A)  returns 0x00 (0000ms, 0469ms total)
T0924 001:166 JLINK_ReadReg(R0)  returns 0x00000000 (0000ms, 0469ms total)
T0924 001:167 JLINK_WriteMem(0x20000180, 0x0400 Bytes, ...) - Data: 8D F8 05 00 8D F8 06 00 01 20 8D F8 07 00 01 A8 ... -- CPU_WriteMem(1024 bytes @ 0x20000180)  returns 0x400 (0009ms, 0478ms total)
T0924 001:176 JLINK_WriteReg(R0, 0x08001400)  returns 0x00 (0000ms, 0478ms total)
T0924 001:176 JLINK_WriteReg(R1, 0x00000400)  returns 0x00 (0000ms, 0478ms total)
T0924 001:176 JLINK_WriteReg(R2, 0x20000180)  returns 0x00 (0000ms, 0478ms total)
T0924 001:176 JLINK_WriteReg(R3, 0x00000000)  returns 0x00 (0000ms, 0478ms total)
T0924 001:176 JLINK_WriteReg(R4, 0x00000000)  returns 0x00 (0000ms, 0478ms total)
T0924 001:176 JLINK_WriteReg(R5, 0x00000000)  returns 0x00 (0000ms, 0478ms total)
T0924 001:176 JLINK_WriteReg(R6, 0x00000000)  returns 0x00 (0000ms, 0478ms total)
T0924 001:176 JLINK_WriteReg(R7, 0x00000000)  returns 0x00 (0000ms, 0478ms total)
T0924 001:176 JLINK_WriteReg(R8, 0x00000000)  returns 0x00 (0000ms, 0478ms total)
T0924 001:176 JLINK_WriteReg(R9, 0x2000017C)  returns 0x00 (0000ms, 0478ms total)
T0924 001:176 JLINK_WriteReg(R10, 0x00000000)  returns 0x00 (0000ms, 0478ms total)
T0924 001:176 JLINK_WriteReg(R11, 0x00000000)  returns 0x00 (0000ms, 0478ms total)
T0924 001:176 JLINK_WriteReg(R12, 0x00000000)  returns 0x00 (0000ms, 0478ms total)
T0924 001:176 JLINK_WriteReg(R13 (SP), 0x20001000)  returns 0x00 (0001ms, 0479ms total)
T0924 001:177 JLINK_WriteReg(R14, 0x20000001)  returns 0x00 (0000ms, 0479ms total)
T0924 001:177 JLINK_WriteReg(R15 (PC), 0x20000108)  returns 0x00 (0000ms, 0479ms total)
T0924 001:177 JLINK_WriteReg(XPSR, 0x01000000)  returns 0x00 (0000ms, 0479ms total)
T0924 001:177 JLINK_WriteReg(MSP, 0x20001000)  returns 0x00 (0000ms, 0479ms total)
T0924 001:177 JLINK_WriteReg(PSP, 0x20001000)  returns 0x00 (0000ms, 0479ms total)
T0924 001:177 JLINK_WriteReg(CFBP, 0x00000000)  returns 0x00 (0000ms, 0479ms total)
T0924 001:177 JLINK_SetBPEx(Addr = 0x20000000, Type = 0xFFFFFFF2)  returns 0x0000000B (0000ms, 0479ms total)
T0924 001:177 JLINK_Go() -- CPU_ReadMem(4 bytes @ 0xE0001000) (0002ms, 0481ms total)
T0924 001:180 JLINK_IsHalted()  returns FALSE (0000ms, 0482ms total)
T0924 001:196 JLINK_IsHalted() -- CPU_ReadMem(2 bytes @ 0x20000000)  returns TRUE (0004ms, 0486ms total)
T0924 001:200 JLINK_ReadReg(R15 (PC))  returns 0x20000000 (0000ms, 0482ms total)
T0924 001:200 JLINK_ClrBPEx(BPHandle = 0x0000000B)  returns 0x00 (0000ms, 0482ms total)
T0924 001:200 JLINK_ReadReg(R0)  returns 0x00000000 (0000ms, 0482ms total)
T0924 001:201 JLINK_WriteMem(0x20000180, 0x0400 Bytes, ...) - Data: F7 0E 0F 26 BE 40 B5 43 CF 10 00 F1 20 06 46 F8 ... -- CPU_WriteMem(1024 bytes @ 0x20000180)  returns 0x400 (0009ms, 0491ms total)
T0924 001:210 JLINK_WriteReg(R0, 0x08001800)  returns 0x00 (0000ms, 0491ms total)
T0924 001:210 JLINK_WriteReg(R1, 0x00000400)  returns 0x00 (0000ms, 0491ms total)
T0924 001:210 JLINK_WriteReg(R2, 0x20000180)  returns 0x00 (0000ms, 0491ms total)
T0924 001:210 JLINK_WriteReg(R3, 0x00000000)  returns 0x00 (0000ms, 0491ms total)
T0924 001:210 JLINK_WriteReg(R4, 0x00000000)  returns 0x00 (0000ms, 0491ms total)
T0924 001:210 JLINK_WriteReg(R5, 0x00000000)  returns 0x00 (0000ms, 0491ms total)
T0924 001:210 JLINK_WriteReg(R6, 0x00000000)  returns 0x00 (0000ms, 0491ms total)
T0924 001:210 JLINK_WriteReg(R7, 0x00000000)  returns 0x00 (0000ms, 0491ms total)
T0924 001:210 JLINK_WriteReg(R8, 0x00000000)  returns 0x00 (0000ms, 0491ms total)
T0924 001:210 JLINK_WriteReg(R9, 0x2000017C)  returns 0x00 (0001ms, 0492ms total)
T0924 001:211 JLINK_WriteReg(R10, 0x00000000)  returns 0x00 (0000ms, 0492ms total)
T0924 001:211 JLINK_WriteReg(R11, 0x00000000)  returns 0x00 (0000ms, 0492ms total)
T0924 001:211 JLINK_WriteReg(R12, 0x00000000)  returns 0x00 (0000ms, 0492ms total)
T0924 001:211 JLINK_WriteReg(R13 (SP), 0x20001000)  returns 0x00 (0000ms, 0492ms total)
T0924 001:211 JLINK_WriteReg(R14, 0x20000001)  returns 0x00 (0000ms, 0492ms total)
T0924 001:211 JLINK_WriteReg(R15 (PC), 0x20000108)  returns 0x00 (0000ms, 0492ms total)
T0924 001:211 JLINK_WriteReg(XPSR, 0x01000000)  returns 0x00 (0000ms, 0492ms total)
T0924 001:211 JLINK_WriteReg(MSP, 0x20001000)  returns 0x00 (0000ms, 0492ms total)
T0924 001:211 JLINK_WriteReg(PSP, 0x20001000)  returns 0x00 (0000ms, 0492ms total)
T0924 001:211 JLINK_WriteReg(CFBP, 0x00000000)  returns 0x00 (0000ms, 0492ms total)
T0924 001:211 JLINK_SetBPEx(Addr = 0x20000000, Type = 0xFFFFFFF2)  returns 0x0000000C (0000ms, 0492ms total)
T0924 001:211 JLINK_Go() -- CPU_ReadMem(4 bytes @ 0xE0001000) (0002ms, 0494ms total)
T0924 001:214 JLINK_IsHalted()  returns FALSE (0000ms, 0494ms total)
T0924 001:221 JLINK_IsHalted() -- CPU_ReadMem(2 bytes @ 0x20000000)  returns TRUE (0003ms, 0497ms total)
T0924 001:224 JLINK_ReadReg(R15 (PC))  returns 0x20000000 (0000ms, 0494ms total)
T0924 001:224 JLINK_ClrBPEx(BPHandle = 0x0000000C)  returns 0x00 (0000ms, 0494ms total)
T0924 001:224 JLINK_ReadReg(R0)  returns 0x00000000 (0000ms, 0494ms total)
T0924 001:225 JLINK_WriteMem(0x20000180, 0x0400 Bytes, ...) - Data: 00 E0 00 20 70 47 01 F4 00 72 B2 F5 00 7F 00 D1 ... -- CPU_WriteMem(1024 bytes @ 0x20000180)  returns 0x400 (0010ms, 0504ms total)
T0924 001:235 JLINK_WriteReg(R0, 0x08001C00)  returns 0x00 (0000ms, 0504ms total)
T0924 001:235 JLINK_WriteReg(R1, 0x00000400)  returns 0x00 (0000ms, 0504ms total)
T0924 001:235 JLINK_WriteReg(R2, 0x20000180)  returns 0x00 (0000ms, 0504ms total)
T0924 001:235 JLINK_WriteReg(R3, 0x00000000)  returns 0x00 (0000ms, 0504ms total)
T0924 001:235 JLINK_WriteReg(R4, 0x00000000)  returns 0x00 (0000ms, 0504ms total)
T0924 001:235 JLINK_WriteReg(R5, 0x00000000)  returns 0x00 (0000ms, 0504ms total)
T0924 001:235 JLINK_WriteReg(R6, 0x00000000)  returns 0x00 (0000ms, 0504ms total)
T0924 001:235 JLINK_WriteReg(R7, 0x00000000)  returns 0x00 (0000ms, 0504ms total)
T0924 001:235 JLINK_WriteReg(R8, 0x00000000)  returns 0x00 (0000ms, 0504ms total)
T0924 001:235 JLINK_WriteReg(R9, 0x2000017C)  returns 0x00 (0000ms, 0504ms total)
T0924 001:235 JLINK_WriteReg(R10, 0x00000000)  returns 0x00 (0000ms, 0504ms total)
T0924 001:235 JLINK_WriteReg(R11, 0x00000000)  returns 0x00 (0000ms, 0504ms total)
T0924 001:235 JLINK_WriteReg(R12, 0x00000000)  returns 0x00 (0000ms, 0504ms total)
T0924 001:235 JLINK_WriteReg(R13 (SP), 0x20001000)  returns 0x00 (0000ms, 0504ms total)
T0924 001:235 JLINK_WriteReg(R14, 0x20000001)  returns 0x00 (0000ms, 0504ms total)
T0924 001:235 JLINK_WriteReg(R15 (PC), 0x20000108)  returns 0x00 (0000ms, 0504ms total)
T0924 001:235 JLINK_WriteReg(XPSR, 0x01000000)  returns 0x00 (0000ms, 0504ms total)
T0924 001:235 JLINK_WriteReg(MSP, 0x20001000)  returns 0x00 (0000ms, 0504ms total)
T0924 001:235 JLINK_WriteReg(PSP, 0x20001000)  returns 0x00 (0001ms, 0505ms total)
T0924 001:236 JLINK_WriteReg(CFBP, 0x00000000)  returns 0x00 (0000ms, 0505ms total)
T0924 001:236 JLINK_SetBPEx(Addr = 0x20000000, Type = 0xFFFFFFF2)  returns 0x0000000D (0000ms, 0505ms total)
T0924 001:236 JLINK_Go() -- CPU_ReadMem(4 bytes @ 0xE0001000) (0002ms, 0507ms total)
T0924 001:238 JLINK_IsHalted()  returns FALSE (0001ms, 0508ms total)
T0924 001:246 JLINK_IsHalted() -- CPU_ReadMem(2 bytes @ 0x20000000)  returns TRUE (0004ms, 0511ms total)
T0924 001:250 JLINK_ReadReg(R15 (PC))  returns 0x20000000 (0000ms, 0507ms total)
T0924 001:250 JLINK_ClrBPEx(BPHandle = 0x0000000D)  returns 0x00 (0000ms, 0507ms total)
T0924 001:250 JLINK_ReadReg(R0)  returns 0x00000000 (0000ms, 0507ms total)
T0924 001:251 JLINK_WriteMem(0x20000180, 0x0400 Bytes, ...) - Data: 06 EA 05 15 2A 43 4F F6 BF 75 2A 40 8D 88 06 EA ... -- CPU_WriteMem(1024 bytes @ 0x20000180)  returns 0x400 (0009ms, 0516ms total)
T0924 001:260 JLINK_WriteReg(R0, 0x08002000)  returns 0x00 (0000ms, 0516ms total)
T0924 001:260 JLINK_WriteReg(R1, 0x00000400)  returns 0x00 (0000ms, 0516ms total)
T0924 001:260 JLINK_WriteReg(R2, 0x20000180)  returns 0x00 (0000ms, 0516ms total)
T0924 001:260 JLINK_WriteReg(R3, 0x00000000)  returns 0x00 (0000ms, 0516ms total)
T0924 001:260 JLINK_WriteReg(R4, 0x00000000)  returns 0x00 (0000ms, 0516ms total)
T0924 001:260 JLINK_WriteReg(R5, 0x00000000)  returns 0x00 (0000ms, 0516ms total)
T0924 001:260 JLINK_WriteReg(R6, 0x00000000)  returns 0x00 (0000ms, 0516ms total)
T0924 001:260 JLINK_WriteReg(R7, 0x00000000)  returns 0x00 (0000ms, 0516ms total)
T0924 001:260 JLINK_WriteReg(R8, 0x00000000)  returns 0x00 (0000ms, 0516ms total)
T0924 001:260 JLINK_WriteReg(R9, 0x2000017C)  returns 0x00 (0000ms, 0516ms total)
T0924 001:260 JLINK_WriteReg(R10, 0x00000000)  returns 0x00 (0000ms, 0516ms total)
T0924 001:260 JLINK_WriteReg(R11, 0x00000000)  returns 0x00 (0000ms, 0516ms total)
T0924 001:260 JLINK_WriteReg(R12, 0x00000000)  returns 0x00 (0000ms, 0516ms total)
T0924 001:260 JLINK_WriteReg(R13 (SP), 0x20001000)  returns 0x00 (0001ms, 0517ms total)
T0924 001:261 JLINK_WriteReg(R14, 0x20000001)  returns 0x00 (0000ms, 0517ms total)
T0924 001:261 JLINK_WriteReg(R15 (PC), 0x20000108)  returns 0x00 (0000ms, 0517ms total)
T0924 001:261 JLINK_WriteReg(XPSR, 0x01000000)  returns 0x00 (0000ms, 0517ms total)
T0924 001:261 JLINK_WriteReg(MSP, 0x20001000)  returns 0x00 (0000ms, 0517ms total)
T0924 001:261 JLINK_WriteReg(PSP, 0x20001000)  returns 0x00 (0000ms, 0517ms total)
T0924 001:261 JLINK_WriteReg(CFBP, 0x00000000)  returns 0x00 (0000ms, 0517ms total)
T0924 001:261 JLINK_SetBPEx(Addr = 0x20000000, Type = 0xFFFFFFF2)  returns 0x0000000E (0000ms, 0517ms total)
T0924 001:261 JLINK_Go() -- CPU_ReadMem(4 bytes @ 0xE0001000) (0002ms, 0519ms total)
T0924 001:264 JLINK_IsHalted()  returns FALSE (0000ms, 0519ms total)
T0924 001:286 JLINK_IsHalted() -- CPU_ReadMem(2 bytes @ 0x20000000)  returns TRUE (0004ms, 0523ms total)
T0924 001:290 JLINK_ReadReg(R15 (PC))  returns 0x20000000 (0000ms, 0519ms total)
T0924 001:290 JLINK_ClrBPEx(BPHandle = 0x0000000E)  returns 0x00 (0000ms, 0519ms total)
T0924 001:290 JLINK_ReadReg(R0)  returns 0x00000000 (0000ms, 0519ms total)
T0924 001:291 JLINK_WriteMem(0x20000180, 0x0400 Bytes, ...) - Data: 9C 43 04 84 04 8C 02 FA 01 F5 AD B2 2C 43 04 84 ... -- CPU_WriteMem(1024 bytes @ 0x20000180)  returns 0x400 (0008ms, 0527ms total)
T0924 001:300 JLINK_WriteReg(R0, 0x08002400)  returns 0x00 (0000ms, 0528ms total)
T0924 001:300 JLINK_WriteReg(R1, 0x00000400)  returns 0x00 (0000ms, 0528ms total)
T0924 001:300 JLINK_WriteReg(R2, 0x20000180)  returns 0x00 (0000ms, 0528ms total)
T0924 001:300 JLINK_WriteReg(R3, 0x00000000)  returns 0x00 (0000ms, 0528ms total)
T0924 001:300 JLINK_WriteReg(R4, 0x00000000)  returns 0x00 (0000ms, 0528ms total)
T0924 001:300 JLINK_WriteReg(R5, 0x00000000)  returns 0x00 (0000ms, 0528ms total)
T0924 001:300 JLINK_WriteReg(R6, 0x00000000)  returns 0x00 (0000ms, 0528ms total)
T0924 001:300 JLINK_WriteReg(R7, 0x00000000)  returns 0x00 (0000ms, 0528ms total)
T0924 001:300 JLINK_WriteReg(R8, 0x00000000)  returns 0x00 (0000ms, 0528ms total)
T0924 001:300 JLINK_WriteReg(R9, 0x2000017C)  returns 0x00 (0000ms, 0528ms total)
T0924 001:300 JLINK_WriteReg(R10, 0x00000000)  returns 0x00 (0000ms, 0528ms total)
T0924 001:300 JLINK_WriteReg(R11, 0x00000000)  returns 0x00 (0000ms, 0528ms total)
T0924 001:300 JLINK_WriteReg(R12, 0x00000000)  returns 0x00 (0000ms, 0528ms total)
T0924 001:300 JLINK_WriteReg(R13 (SP), 0x20001000)  returns 0x00 (0000ms, 0528ms total)
T0924 001:300 JLINK_WriteReg(R14, 0x20000001)  returns 0x00 (0000ms, 0528ms total)
T0924 001:300 JLINK_WriteReg(R15 (PC), 0x20000108)  returns 0x00 (0000ms, 0528ms total)
T0924 001:300 JLINK_WriteReg(XPSR, 0x01000000)  returns 0x00 (0000ms, 0528ms total)
T0924 001:300 JLINK_WriteReg(MSP, 0x20001000)  returns 0x00 (0000ms, 0528ms total)
T0924 001:300 JLINK_WriteReg(PSP, 0x20001000)  returns 0x00 (0000ms, 0528ms total)
T0924 001:300 JLINK_WriteReg(CFBP, 0x00000000)  returns 0x00 (0001ms, 0529ms total)
T0924 001:301 JLINK_SetBPEx(Addr = 0x20000000, Type = 0xFFFFFFF2)  returns 0x0000000F (0000ms, 0529ms total)
T0924 001:301 JLINK_Go() -- CPU_ReadMem(4 bytes @ 0xE0001000) (0002ms, 0531ms total)
T0924 001:303 JLINK_IsHalted()  returns FALSE (0001ms, 0532ms total)
T0924 001:312 JLINK_IsHalted() -- CPU_ReadMem(2 bytes @ 0x20000000)  returns TRUE (0004ms, 0535ms total)
T0924 001:316 JLINK_ReadReg(R15 (PC))  returns 0x20000000 (0000ms, 0531ms total)
T0924 001:316 JLINK_ClrBPEx(BPHandle = 0x0000000F)  returns 0x00 (0000ms, 0531ms total)
T0924 001:316 JLINK_ReadReg(R0)  returns 0x00000000 (0000ms, 0531ms total)
T0924 001:317 JLINK_WriteMem(0x20000180, 0x0400 Bytes, ...) - Data: 40 F0 07 00 20 81 30 BD 2D E9 F0 41 04 46 0D 46 ... -- CPU_WriteMem(1024 bytes @ 0x20000180)  returns 0x400 (0009ms, 0540ms total)
T0924 001:326 JLINK_WriteReg(R0, 0x08002800)  returns 0x00 (0000ms, 0540ms total)
T0924 001:326 JLINK_WriteReg(R1, 0x00000400)  returns 0x00 (0000ms, 0540ms total)
T0924 001:326 JLINK_WriteReg(R2, 0x20000180)  returns 0x00 (0000ms, 0540ms total)
T0924 001:326 JLINK_WriteReg(R3, 0x00000000)  returns 0x00 (0000ms, 0540ms total)
T0924 001:326 JLINK_WriteReg(R4, 0x00000000)  returns 0x00 (0000ms, 0540ms total)
T0924 001:326 JLINK_WriteReg(R5, 0x00000000)  returns 0x00 (0000ms, 0540ms total)
T0924 001:326 JLINK_WriteReg(R6, 0x00000000)  returns 0x00 (0000ms, 0540ms total)
T0924 001:326 JLINK_WriteReg(R7, 0x00000000)  returns 0x00 (0000ms, 0540ms total)
T0924 001:326 JLINK_WriteReg(R8, 0x00000000)  returns 0x00 (0000ms, 0540ms total)
T0924 001:326 JLINK_WriteReg(R9, 0x2000017C)  returns 0x00 (0000ms, 0540ms total)
T0924 001:326 JLINK_WriteReg(R10, 0x00000000)  returns 0x00 (0000ms, 0540ms total)
